
T4DD0 000:286 SEGGER J-Link V4.92 Log File (0000ms, 0263ms total)
T4DD0 000:286 DLL Compiled: Sep 30 2014 09:33:42 (0000ms, 0263ms total)
T4DD0 000:286 Logging started @ 2024-08-07 10:46 (0000ms, 0263ms total)
T4DD0 000:286 JLINK_SetWarnOutHandler(...) (0000ms, 0263ms total)
T4DD0 000:286 JLINK_OpenEx(...)
Firmware: J-Link ARM-OB STM32 compiled Aug 22 2012 19:52:04
Hardware: V7.00
S/N: 20090928
Feature(s): RDI,FlashDL,FlashBP,JFlash,GDB  returns O.K. (0260ms, 0523ms total)
T4DD0 000:546 JLINK_GetEmuCaps()  returns 0x88EA5833 (0000ms, 0523ms total)
T4DD0 000:546 JLINK_TIF_GetAvailable(...) (0000ms, 0523ms total)
T4DD0 000:546 JLINK_SetErrorOutHandler(...) (0000ms, 0523ms total)
T4DD0 000:546 JLINK_ExecCommand("ProjectFile = "C:\Users\19062\Desktop\Quadcopter\Flight_HAL\MDK-ARM\JLinkSettings.ini"", ...)  returns 0x00 (0000ms, 0523ms total)
T4DD0 000:546 JLINK_ExecCommand("Device = STM32F103C8", ...)Device "STM32F103C8" selected (64 KB flash, 20 KB RAM).  returns 0x00 (0000ms, 0523ms total)
T4DD0 000:546 JLINK_ExecCommand("DisableConnectionTimeout", ...)  returns 0x01 (0000ms, 0523ms total)
T4DD0 000:546 JLINK_GetHardwareVersion()  returns 0x11170 (0000ms, 0523ms total)
T4DD0 000:546 JLINK_GetDLLVersion()  returns 49200 (0000ms, 0523ms total)
T4DD0 000:546 JLINK_GetFirmwareString(...) (0000ms, 0523ms total)
T4DD0 000:546 JLINK_GetDLLVersion()  returns 49200 (0000ms, 0523ms total)
T4DD0 000:546 JLINK_GetCompileDateTime() (0000ms, 0523ms total)
T4DD0 000:546 JLINK_GetFirmwareString(...) (0000ms, 0523ms total)
T4DD0 000:546 JLINK_GetHardwareVersion()  returns 0x11170 (0000ms, 0523ms total)
T4DD0 000:546 JLINK_TIF_Select(JLINKARM_TIF_SWD)  returns 0x00 (0001ms, 0524ms total)
T4DD0 000:547 JLINK_SetSpeed(50000) (0000ms, 0524ms total)
T4DD0 000:547 JLINK_GetId() >0x108 TIF>Found SWD-DP with ID 0x1BA01477 >0x0D TIF> >0x28 TIF> >0x0D TIF> >0x28 TIF> >0x0D TIF> >0x21 TIF> >0x0D TIF> >0x28 TIF> >0x0D TIF> >0x28 TIF> >0x0D TIF> >0x28 TIF> >0x0D TIF> >0x21 TIF> >0x0D TIF> >0x21 TIF> >0x0D TIF> >0x28 TIF> >0x0D TIF> >0x21 TIF> >0x0D TIF> >0x21 TIF> >0x108 TIF>Found SWD-DP with ID 0x1BA01477 >0x0D TIF> >0x21 TIF> >0x0D TIF> >0x28 TIF> >0x0D TIF> >0x28 TIF> >0x0D TIF> >0x21 TIF> >0x0D TIF> >0x28 TIF> >0x0D TIF> >0x21 TIF> >0x0D TIF> >0x21 TIF>
 >0x0D TIF> >0x21 TIF> >0x0D TIF> >0x21 TIF> >0x0D TIF> >0x28 TIF> >0x0D TIF> >0x28 TIF> >0x0D TIF> >0x21 TIF> >0x0D TIF> >0x28 TIF> >0x0D TIF> >0x28 TIF> >0x0D TIF> >0x28 TIF> >0x0D TIF> >0x21 TIF> >0x0D TIF> >0x21 TIF> >0x0D TIF> >0x28 TIF> >0x0D TIF> >0x21 TIF> >0x0D TIF> >0x21 TIF>Found Cortex-M3 r1p1, Little endian. -- CPU_WriteMem(4 bytes @ 0xE0002000) -- CPU_ReadMem(4 bytes @ 0xE000EDF0) -- CPU_ReadMem(4 bytes @ 0xE0002000)FPUnit: 6 code (BP) slots and 2 literal slots
 -- CPU_ReadMem(4 bytes @ 0xE000EDFC) -- CPU_ReadMem(4 bytes @ 0xE0001000) -- CPU_WriteMem(4 bytes @ 0xE0001000) -- CPU_ReadMem(4 bytes @ 0xE000ED88) -- CPU_WriteMem(4 bytes @ 0xE000ED88) -- CPU_ReadMem(4 bytes @ 0xE000ED88) -- CPU_WriteMem(4 bytes @ 0xE000ED88) -- CPU_ReadMem(4 bytes @ 0xE00FF010)TPIU fitted. -- CPU_ReadMem(4 bytes @ 0xE00FF014) -- CPU_ReadMem(4 bytes @ 0xE00FF018) >0x0D TIF> >0x21 TIF>  returns 0x1BA01477 (0021ms, 0545ms total)
T4DD0 000:568 JLINK_GetDLLVersion()  returns 49200 (0000ms, 0545ms total)
T4DD0 000:568 JLINK_CORE_GetFound()  returns 0x30000FF (0000ms, 0545ms total)
T4DD0 000:568 JLINK_GetDebugInfo(0x100) -- Value=0xE00FF003  returns 0x00 (0000ms, 0545ms total)
T4DD0 000:568 JLINK_GetDebugInfo(0x101)  returns 0xFFFFFFFF (0000ms, 0545ms total)
T4DD0 000:568 JLINK_ReadMemEx(0xE0041FF0, 0x0010 Bytes, ..., AccessWidth = 33554436) -- CPU is running -- CPU_ReadMem(16 bytes @ 0xE0041FF0) - Data: 00 00 00 00 00 00 00 00 00 00 00 00 00 00 00 00  returns 0x10 (0001ms, 0546ms total)
T4DD0 000:569 JLINK_GetDebugInfo(0x102)  returns 0xFFFFFFFF (0000ms, 0546ms total)
T4DD0 000:569 JLINK_GetDebugInfo(0x103)  returns 0xFFFFFFFF (0000ms, 0546ms total)
T4DD0 000:569 JLINK_ReadMemEx(0xE0040FF0, 0x0010 Bytes, ..., AccessWidth = 33554436) -- CPU is running -- CPU_ReadMem(16 bytes @ 0xE0040FF0) - Data: 0D 00 00 00 90 00 00 00 05 00 00 00 B1 00 00 00  returns 0x10 (0000ms, 0546ms total)
T4DD0 000:569 JLINK_GetDebugInfo(0x104)  returns 0xFFFFFFFF (0000ms, 0546ms total)
T4DD0 000:569 JLINK_GetDebugInfo(0x105)  returns 0xFFFFFFFF (0000ms, 0546ms total)
T4DD0 000:569 JLINK_GetDebugInfo(0x106)  returns 0xFFFFFFFF (0000ms, 0546ms total)
T4DD0 000:569 JLINK_GetDebugInfo(0x107)  returns 0xFFFFFFFF (0000ms, 0546ms total)
T4DD0 000:569 JLINK_GetDebugInfo(0x10C)  returns 0xFFFFFFFF (0000ms, 0546ms total)
T4DD0 000:569 JLINK_ReadMemU32(0xE000ED00, 0x0001 Items, ...) -- CPU is running -- CPU_ReadMem(4 bytes @ 0xE000ED00) - Data: 31 C2 1F 41  returns 0x01 (0001ms, 0547ms total)
T4DD0 000:570 JLINK_GetDebugInfo(0x10F)  returns 0xFFFFFFFF (0000ms, 0547ms total)
T4DD0 000:570 JLINK_SetResetType(JLINKARM_RESET_TYPE_NORMAL)  returns JLINKARM_RESET_TYPE_NORMAL (0000ms, 0547ms total)
T4DD0 000:570 JLINK_Reset() -- CPU is running -- CPU_WriteMem(4 bytes @ 0xE000EDF0) -- CPU is running -- CPU_WriteMem(4 bytes @ 0xE000EDFC) >0x35 TIF> -- CPU is running -- CPU_WriteMem(4 bytes @ 0xE000ED0C) -- CPU is running -- CPU_ReadMem(4 bytes @ 0xE000EDF0) -- CPU is running -- CPU_ReadMem(4 bytes @ 0xE000EDF0) -- CPU is running -- CPU_WriteMem(4 bytes @ 0xE000EDF0) -- CPU is running -- CPU_WriteMem(4 bytes @ 0xE000EDFC) -- CPU is running -- CPU_ReadMem(4 bytes @ 0xE000EDF0)
 -- CPU_WriteMem(4 bytes @ 0xE0002000) -- CPU_ReadMem(4 bytes @ 0xE000EDFC) -- CPU_ReadMem(4 bytes @ 0xE0001000) (0018ms, 0565ms total)
T4DD0 000:588 JLINK_ReadReg(R15 (PC))  returns 0x08000100 (0000ms, 0565ms total)
T4DD0 000:588 JLINK_ReadReg(XPSR)  returns 0x01000000 (0000ms, 0565ms total)
T4DD0 000:588 JLINK_Halt()  returns 0x00 (0000ms, 0565ms total)
T4DD0 000:588 JLINK_ReadMemU32(0xE000EDF0, 0x0001 Items, ...) -- CPU_ReadMem(4 bytes @ 0xE000EDF0) - Data: 03 00 03 00  returns 0x01 (0001ms, 0566ms total)
T4DD0 000:589 JLINK_WriteU32(0xE000EDF0, 0xA05F0003) -- CPU_WriteMem(4 bytes @ 0xE000EDF0)  returns 0x00 (0000ms, 0566ms total)
T4DD0 000:589 JLINK_WriteU32(0xE000EDFC, 0x01000000) -- CPU_WriteMem(4 bytes @ 0xE000EDFC)  returns 0x00 (0001ms, 0567ms total)
T4DD0 000:590 JLINK_GetHWStatus(...)  returns 0x00 (0000ms, 0567ms total)
T4DD0 000:590 JLINK_GetNumBPUnits(Type = 0xFFFFFF00)  returns 0x06 (0000ms, 0567ms total)
T4DD0 000:590 JLINK_GetNumBPUnits(Type = 0xF0)  returns 0x2000 (0000ms, 0567ms total)
T4DD0 000:590 JLINK_GetNumWPUnits()  returns 0x04 (0000ms, 0567ms total)
T4DD0 000:590 JLINK_GetSpeed()  returns 0xFA0 (0000ms, 0567ms total)
T4DD0 000:590 JLINK_ReadMemU32(0xE000E004, 0x0001 Items, ...) -- CPU_ReadMem(4 bytes @ 0xE000E004) - Data: 01 00 00 00  returns 0x01 (0001ms, 0568ms total)
T4DD0 000:591 JLINK_ReadMemU32(0xE000E004, 0x0001 Items, ...) -- CPU_ReadMem(4 bytes @ 0xE000E004) - Data: 01 00 00 00  returns 0x01 (0000ms, 0568ms total)
T4DD0 000:591 JLINK_WriteMemEx(0xE0001000, 0x001C Bytes, ..., AccessWidth = 33554436) - Data: 01 00 00 00 00 00 00 00 00 00 00 00 00 00 00 00 ... -- CPU_WriteMem(28 bytes @ 0xE0001000)  returns 0x1C (0001ms, 0569ms total)
T4DD0 000:592 JLINK_ReadReg(R15 (PC))  returns 0x08000100 (0000ms, 0569ms total)
T4DD0 000:592 JLINK_ReadReg(XPSR)  returns 0x01000000 (0000ms, 0569ms total)
T4DD0 000:669 JLINK_SetResetType(JLINKARM_RESET_TYPE_NORMAL)  returns JLINKARM_RESET_TYPE_NORMAL (0000ms, 0569ms total)
T4DD0 000:669 JLINK_Reset() -- CPU_WriteMem(4 bytes @ 0xE000EDF0) -- CPU_WriteMem(4 bytes @ 0xE000EDFC) >0x35 TIF> -- CPU_WriteMem(4 bytes @ 0xE000ED0C) -- CPU_ReadMem(4 bytes @ 0xE000EDF0) -- CPU_ReadMem(4 bytes @ 0xE000EDF0) -- CPU_WriteMem(4 bytes @ 0xE000EDF0) -- CPU_WriteMem(4 bytes @ 0xE000EDFC) -- CPU is running -- CPU_ReadMem(4 bytes @ 0xE000EDF0) -- CPU_WriteMem(4 bytes @ 0xE0002000) -- CPU_ReadMem(4 bytes @ 0xE000EDFC) -- CPU_ReadMem(4 bytes @ 0xE0001000) (0018ms, 0587ms total)
T4DD0 000:687 JLINK_ReadReg(R15 (PC))  returns 0x08000100 (0000ms, 0587ms total)
T4DD0 000:687 JLINK_ReadReg(XPSR)  returns 0x01000000 (0000ms, 0587ms total)
T4DD0 000:687 JLINK_ReadMemEx(0x08000100, 0x003C Bytes, ..., AccessWidth = 33554432)Mis-aligned memory read: Address: 0x08000100, NumBytes: 60, Alignment: 2 (Halfword-aligned)
  ***** Mis-aligned memory read: Address: 0x08000100, NumBytes: 60, Alignment: 2 (Halfword-aligned) -- CPU_ReadMem(64 bytes @ 0x08000100) -- Updating C cache (64 bytes @ 0x08000100) -- Read from C cache (60 bytes @ 0x08000100) - Data: 06 48 80 47 06 48 00 47 FE E7 FE E7 FE E7 FE E7 ...  returns 0x3C (0001ms, 0588ms total)
T0AC0 001:462 JLINK_ReadMemEx(0x08000100, 0x0002 Bytes, ..., AccessWidth = 33554432)Mis-aligned memory read: Address: 0x08000100, NumBytes: 2, Alignment: 2 (Halfword-aligned)
  ***** Mis-aligned memory read: Address: 0x08000100, NumBytes: 2, Alignment: 2 (Halfword-aligned) -- Read from C cache (2 bytes @ 0x08000100) - Data: 06 48  returns 0x02 (0001ms, 0589ms total)
T0AC0 001:463 JLINK_SetBPEx(Addr = 0x08003FBC, Type = 0xFFFFFFF2)  returns 0x00000001 (0000ms, 0589ms total)
T0AC0 001:464 JLINK_Go() -- CPU_WriteMem(4 bytes @ 0xE0002000) -- CPU_WriteMem(4 bytes @ 0xE0002008) -- CPU_WriteMem(4 bytes @ 0xE000200C) -- CPU_WriteMem(4 bytes @ 0xE0002010) -- CPU_WriteMem(4 bytes @ 0xE0002014) -- CPU_WriteMem(4 bytes @ 0xE0002018) -- CPU_WriteMem(4 bytes @ 0xE000201C) -- CPU_WriteMem(4 bytes @ 0xE0001004) (0004ms, 0593ms total)
T0AC0 001:569 JLINK_IsHalted()  returns TRUE (0003ms, 0596ms total)
T0AC0 001:572 JLINK_Halt()  returns 0x00 (0000ms, 0593ms total)
T0AC0 001:572 JLINK_IsHalted()  returns TRUE (0000ms, 0593ms total)
T0AC0 001:572 JLINK_IsHalted()  returns TRUE (0000ms, 0593ms total)
T0AC0 001:572 JLINK_IsHalted()  returns TRUE (0000ms, 0593ms total)
T0AC0 001:572 JLINK_ReadReg(R15 (PC))  returns 0x08003FBC (0000ms, 0593ms total)
T0AC0 001:572 JLINK_ReadReg(XPSR)  returns 0x61000000 (0000ms, 0593ms total)
T0AC0 001:572 JLINK_ClrBPEx(BPHandle = 0x00000001)  returns 0x00 (0000ms, 0593ms total)
T0AC0 001:572 JLINK_ReadMemU32(0xE000ED30, 0x0001 Items, ...) -- CPU_ReadMem(4 bytes @ 0xE000ED30) - Data: 03 00 00 00  returns 0x01 (0001ms, 0594ms total)
T0AC0 001:573 JLINK_ReadMemU32(0xE0001028, 0x0001 Items, ...) -- CPU_ReadMem(4 bytes @ 0xE0001028) - Data: 00 00 00 00  returns 0x01 (0000ms, 0594ms total)
T0AC0 001:573 JLINK_ReadMemU32(0xE0001038, 0x0001 Items, ...) -- CPU_ReadMem(4 bytes @ 0xE0001038) - Data: 00 02 00 00  returns 0x01 (0001ms, 0595ms total)
T0AC0 001:574 JLINK_ReadMemU32(0xE0001048, 0x0001 Items, ...) -- CPU_ReadMem(4 bytes @ 0xE0001048) - Data: 00 00 00 00  returns 0x01 (0001ms, 0596ms total)
T0AC0 001:575 JLINK_ReadMemU32(0xE0001058, 0x0001 Items, ...) -- CPU_ReadMem(4 bytes @ 0xE0001058) - Data: 00 00 00 00  returns 0x01 (0000ms, 0596ms total)
T0AC0 001:575 JLINK_ReadReg(R0)  returns 0x08003FBD (0000ms, 0596ms total)
T0AC0 001:575 JLINK_ReadReg(R1)  returns 0x20001918 (0000ms, 0596ms total)
T0AC0 001:575 JLINK_ReadReg(R2)  returns 0x00000000 (0000ms, 0596ms total)
T0AC0 001:575 JLINK_ReadReg(R3)  returns 0x08003B2D (0000ms, 0596ms total)
T0AC0 001:575 JLINK_ReadReg(R4)  returns 0x080042D0 (0000ms, 0596ms total)
T0AC0 001:575 JLINK_ReadReg(R5)  returns 0x080042D0 (0000ms, 0596ms total)
T0AC0 001:575 JLINK_ReadReg(R6)  returns 0x000003E8 (0000ms, 0596ms total)
T0AC0 001:575 JLINK_ReadReg(R7)  returns 0x00000000 (0000ms, 0596ms total)
T0AC0 001:575 JLINK_ReadReg(R8)  returns 0x000002FF (0000ms, 0596ms total)
T0AC0 001:575 JLINK_ReadReg(R9)  returns 0x000003E8 (0000ms, 0596ms total)
T0AC0 001:575 JLINK_ReadReg(R10)  returns 0x000002FF (0000ms, 0596ms total)
T0AC0 001:575 JLINK_ReadReg(R11)  returns 0x00000000 (0000ms, 0596ms total)
T0AC0 001:575 JLINK_ReadReg(R12)  returns 0x00000004 (0000ms, 0596ms total)
T0AC0 001:575 JLINK_ReadReg(R13 (SP))  returns 0x20001918 (0000ms, 0596ms total)
T0AC0 001:575 JLINK_ReadReg(R14)  returns 0x08000205 (0000ms, 0596ms total)
T0AC0 001:575 JLINK_ReadReg(R15 (PC))  returns 0x08003FBC (0000ms, 0596ms total)
T0AC0 001:575 JLINK_ReadReg(XPSR)  returns 0x61000000 (0000ms, 0596ms total)
T0AC0 001:575 JLINK_ReadReg(MSP)  returns 0x20001918 (0000ms, 0596ms total)
T0AC0 001:575 JLINK_ReadReg(PSP)  returns 0x20001000 (0000ms, 0596ms total)
T0AC0 001:575 JLINK_ReadReg(CFBP)  returns 0x00000000 (0000ms, 0596ms total)
T4DD0 001:575 JLINK_ReadMemEx(0x200018FC, 0x001C Bytes, ..., AccessWidth = 33554432)Mis-aligned memory read: Address: 0x200018FC, NumBytes: 28, Alignment: 2 (Halfword-aligned)
  ***** Mis-aligned memory read: Address: 0x200018FC, NumBytes: 28, Alignment: 2 (Halfword-aligned) -- CPU_ReadMem(128 bytes @ 0x200018C0) -- Updating C cache (128 bytes @ 0x200018C0) -- Read from C cache (28 bytes @ 0x200018FC) - Data: 00 00 00 00 00 00 00 00 00 00 00 00 00 00 00 00 ...  returns 0x1C (0002ms, 0598ms total)
T4DD0 001:582 JLINK_ReadMemU32(0xE0001004, 0x0001 Items, ...) -- CPU_ReadMem(4 bytes @ 0xE0001004) - Data: 1C 26 00 00  returns 0x01 (0000ms, 0598ms total)
T0AC0 519:745 JLINK_ReadMemEx(0x08003FBC, 0x003C Bytes, ..., AccessWidth = 33554432)Mis-aligned memory read: Address: 0x08003FBC, NumBytes: 60, Alignment: 2 (Halfword-aligned)
  ***** Mis-aligned memory read: Address: 0x08003FBC, NumBytes: 60, Alignment: 2 (Halfword-aligned) -- CPU_ReadMem(128 bytes @ 0x08003F80) -- Updating C cache (128 bytes @ 0x08003F80) -- Read from C cache (60 bytes @ 0x08003FBC) - Data: 88 B0 FD F7 11 FB FF F7 40 FB FF F7 27 F8 FF F7 ...  returns 0x3C (0002ms, 0600ms total)
T0AC0 519:747 JLINK_ReadMemEx(0x08003FBC, 0x0002 Bytes, ..., AccessWidth = 33554432)Mis-aligned memory read: Address: 0x08003FBC, NumBytes: 2, Alignment: 2 (Halfword-aligned)
  ***** Mis-aligned memory read: Address: 0x08003FBC, NumBytes: 2, Alignment: 2 (Halfword-aligned) -- Read from C cache (2 bytes @ 0x08003FBC) - Data: 88 B0  returns 0x02 (0000ms, 0600ms total)
T0AC0 519:747 JLINK_Step() -- Read from C cache (2 bytes @ 0x08003FBC) -- Simulated  returns 0x00 (0001ms, 0601ms total)
T0AC0 519:748 JLINK_ReadReg(R15 (PC))  returns 0x08003FBE (0000ms, 0601ms total)
T0AC0 519:748 JLINK_ReadReg(XPSR)  returns 0x61000000 (0000ms, 0601ms total)
T0AC0 519:748 JLINK_ReadReg(R0)  returns 0x08003FBD (0000ms, 0601ms total)
T0AC0 519:748 JLINK_ReadReg(R1)  returns 0x20001918 (0000ms, 0601ms total)
T0AC0 519:748 JLINK_ReadReg(R2)  returns 0x00000000 (0000ms, 0601ms total)
T0AC0 519:748 JLINK_ReadReg(R3)  returns 0x08003B2D (0000ms, 0601ms total)
T0AC0 519:748 JLINK_ReadReg(R4)  returns 0x080042D0 (0000ms, 0601ms total)
T0AC0 519:748 JLINK_ReadReg(R5)  returns 0x080042D0 (0000ms, 0601ms total)
T0AC0 519:748 JLINK_ReadReg(R6)  returns 0x000003E8 (0000ms, 0601ms total)
T0AC0 519:748 JLINK_ReadReg(R7)  returns 0x00000000 (0000ms, 0601ms total)
T0AC0 519:748 JLINK_ReadReg(R8)  returns 0x000002FF (0000ms, 0601ms total)
T0AC0 519:748 JLINK_ReadReg(R9)  returns 0x000003E8 (0000ms, 0601ms total)
T0AC0 519:748 JLINK_ReadReg(R10)  returns 0x000002FF (0000ms, 0601ms total)
T0AC0 519:748 JLINK_ReadReg(R11)  returns 0x00000000 (0000ms, 0601ms total)
T0AC0 519:748 JLINK_ReadReg(R12)  returns 0x00000004 (0000ms, 0601ms total)
T0AC0 519:748 JLINK_ReadReg(R13 (SP))  returns 0x200018F8 (0000ms, 0601ms total)
T0AC0 519:748 JLINK_ReadReg(R14)  returns 0x08000205 (0000ms, 0601ms total)
T0AC0 519:748 JLINK_ReadReg(R15 (PC))  returns 0x08003FBE (0000ms, 0601ms total)
T0AC0 519:748 JLINK_ReadReg(XPSR)  returns 0x61000000 (0000ms, 0601ms total)
T0AC0 519:748 JLINK_ReadReg(MSP)  returns 0x200018F8 (0000ms, 0601ms total)
T0AC0 519:748 JLINK_ReadReg(PSP)  returns 0x20001000 (0000ms, 0601ms total)
T0AC0 519:748 JLINK_ReadReg(CFBP)  returns 0x00000000 (0000ms, 0601ms total)
T4DD0 519:748 JLINK_ReadMemEx(0x200018FC, 0x001C Bytes, ..., AccessWidth = 33554432)Mis-aligned memory read: Address: 0x200018FC, NumBytes: 28, Alignment: 2 (Halfword-aligned)
  ***** Mis-aligned memory read: Address: 0x200018FC, NumBytes: 28, Alignment: 2 (Halfword-aligned) -- Read from C cache (28 bytes @ 0x200018FC) - Data: 00 00 00 00 00 00 00 00 00 00 00 00 00 00 00 00 ...  returns 0x1C (0000ms, 0601ms total)
T4DD0 519:748 JLINK_ReadMemU32(0xE0001004, 0x0001 Items, ...) - Data: 1C 26 00 00  returns 0x01 (0000ms, 0601ms total)
T0AC0 520:395 JLINK_ReadMemEx(0x08003FBE, 0x0002 Bytes, ..., AccessWidth = 33554432)Mis-aligned memory read: Address: 0x08003FBE, NumBytes: 2, Alignment: 2 (Halfword-aligned)
  ***** Mis-aligned memory read: Address: 0x08003FBE, NumBytes: 2, Alignment: 2 (Halfword-aligned) -- Read from C cache (2 bytes @ 0x08003FBE) - Data: FD F7  returns 0x02 (0001ms, 0602ms total)
T0AC0 520:396 JLINK_ReadMemEx(0x08003FC0, 0x003C Bytes, ..., AccessWidth = 33554432)Mis-aligned memory read: Address: 0x08003FC0, NumBytes: 60, Alignment: 2 (Halfword-aligned)
  ***** Mis-aligned memory read: Address: 0x08003FC0, NumBytes: 60, Alignment: 2 (Halfword-aligned) -- Read from C cache (60 bytes @ 0x08003FC0) - Data: 11 FB FF F7 40 FB FF F7 27 F8 FF F7 0B F8 FF F7 ...  returns 0x3C (0000ms, 0602ms total)
T0AC0 520:396 JLINK_ReadMemEx(0x08003FBE, 0x0002 Bytes, ..., AccessWidth = 33554432)Mis-aligned memory read: Address: 0x08003FBE, NumBytes: 2, Alignment: 2 (Halfword-aligned)
  ***** Mis-aligned memory read: Address: 0x08003FBE, NumBytes: 2, Alignment: 2 (Halfword-aligned) -- Read from C cache (2 bytes @ 0x08003FBE) - Data: FD F7  returns 0x02 (0000ms, 0602ms total)
T0AC0 520:396 JLINK_SetBPEx(Addr = 0x08003FC2, Type = 0xFFFFFFF2)  returns 0x00000002 (0000ms, 0602ms total)
T0AC0 520:396 JLINK_Go() -- CPU_WriteMem(4 bytes @ 0xE0002000) -- CPU_WriteMem(4 bytes @ 0xE0002008) -- CPU_WriteMem(4 bytes @ 0xE0001004) (0004ms, 0606ms total)
T0AC0 520:500 JLINK_IsHalted()  returns TRUE (0004ms, 0610ms total)
T0AC0 520:504 JLINK_Halt()  returns 0x00 (0000ms, 0606ms total)
T0AC0 520:504 JLINK_IsHalted()  returns TRUE (0000ms, 0606ms total)
T0AC0 520:504 JLINK_IsHalted()  returns TRUE (0000ms, 0606ms total)
T0AC0 520:504 JLINK_IsHalted()  returns TRUE (0000ms, 0606ms total)
T0AC0 520:504 JLINK_ReadReg(R15 (PC))  returns 0x08003FC2 (0000ms, 0606ms total)
T0AC0 520:504 JLINK_ReadReg(XPSR)  returns 0x61000000 (0000ms, 0606ms total)
T0AC0 520:504 JLINK_ClrBPEx(BPHandle = 0x00000002)  returns 0x00 (0000ms, 0606ms total)
T0AC0 520:504 JLINK_ReadMemU32(0xE000ED30, 0x0001 Items, ...) -- CPU_ReadMem(4 bytes @ 0xE000ED30) - Data: 03 00 00 00  returns 0x01 (0001ms, 0607ms total)
T0AC0 520:505 JLINK_ReadMemU32(0xE0001028, 0x0001 Items, ...) -- CPU_ReadMem(4 bytes @ 0xE0001028) - Data: 00 00 00 00  returns 0x01 (0000ms, 0607ms total)
T0AC0 520:505 JLINK_ReadMemU32(0xE0001038, 0x0001 Items, ...) -- CPU_ReadMem(4 bytes @ 0xE0001038) - Data: 00 02 00 00  returns 0x01 (0000ms, 0607ms total)
T0AC0 520:505 JLINK_ReadMemU32(0xE0001048, 0x0001 Items, ...) -- CPU_ReadMem(4 bytes @ 0xE0001048) - Data: 00 00 00 00  returns 0x01 (0001ms, 0608ms total)
T0AC0 520:506 JLINK_ReadMemU32(0xE0001058, 0x0001 Items, ...) -- CPU_ReadMem(4 bytes @ 0xE0001058) - Data: 00 00 00 00  returns 0x01 (0000ms, 0608ms total)
T0AC0 520:506 JLINK_ReadReg(R0)  returns 0x00000000 (0000ms, 0608ms total)
T0AC0 520:506 JLINK_ReadReg(R1)  returns 0x40010000 (0000ms, 0608ms total)
T0AC0 520:506 JLINK_ReadReg(R2)  returns 0xE000ED18 (0000ms, 0608ms total)
T0AC0 520:506 JLINK_ReadReg(R3)  returns 0x10000000 (0000ms, 0608ms total)
T0AC0 520:506 JLINK_ReadReg(R4)  returns 0x080042D0 (0000ms, 0608ms total)
T0AC0 520:506 JLINK_ReadReg(R5)  returns 0x080042D0 (0000ms, 0608ms total)
T0AC0 520:506 JLINK_ReadReg(R6)  returns 0x000003E8 (0000ms, 0608ms total)
T0AC0 520:506 JLINK_ReadReg(R7)  returns 0x00000000 (0000ms, 0608ms total)
T0AC0 520:506 JLINK_ReadReg(R8)  returns 0x000002FF (0000ms, 0608ms total)
T0AC0 520:506 JLINK_ReadReg(R9)  returns 0x000003E8 (0000ms, 0608ms total)
T0AC0 520:506 JLINK_ReadReg(R10)  returns 0x000002FF (0000ms, 0608ms total)
T0AC0 520:506 JLINK_ReadReg(R11)  returns 0x00000000 (0000ms, 0608ms total)
T0AC0 520:506 JLINK_ReadReg(R12)  returns 0x00000004 (0000ms, 0608ms total)
T0AC0 520:506 JLINK_ReadReg(R13 (SP))  returns 0x200018F8 (0000ms, 0608ms total)
T0AC0 520:506 JLINK_ReadReg(R14)  returns 0x08001603 (0000ms, 0608ms total)
T0AC0 520:506 JLINK_ReadReg(R15 (PC))  returns 0x08003FC2 (0000ms, 0608ms total)
T0AC0 520:506 JLINK_ReadReg(XPSR)  returns 0x61000000 (0000ms, 0608ms total)
T0AC0 520:506 JLINK_ReadReg(MSP)  returns 0x200018F8 (0000ms, 0608ms total)
T0AC0 520:506 JLINK_ReadReg(PSP)  returns 0x20001000 (0000ms, 0608ms total)
T0AC0 520:506 JLINK_ReadReg(CFBP)  returns 0x00000000 (0000ms, 0608ms total)
T4DD0 520:506 JLINK_ReadMemEx(0x200018FC, 0x001C Bytes, ..., AccessWidth = 33554432)Mis-aligned memory read: Address: 0x200018FC, NumBytes: 28, Alignment: 2 (Halfword-aligned)
  ***** Mis-aligned memory read: Address: 0x200018FC, NumBytes: 28, Alignment: 2 (Halfword-aligned) -- CPU_ReadMem(128 bytes @ 0x200018C0) -- Updating C cache (128 bytes @ 0x200018C0) -- Read from C cache (28 bytes @ 0x200018FC) - Data: 00 00 00 00 00 00 00 00 00 00 00 00 00 00 00 00 ...  returns 0x1C (0003ms, 0611ms total)
T4DD0 520:509 JLINK_ReadMemU32(0xE0001004, 0x0001 Items, ...) -- CPU_ReadMem(4 bytes @ 0xE0001004) - Data: 58 27 00 00  returns 0x01 (0000ms, 0611ms total)
T0AC0 520:929 JLINK_ReadMemEx(0x08003FC2, 0x0002 Bytes, ..., AccessWidth = 33554432)Mis-aligned memory read: Address: 0x08003FC2, NumBytes: 2, Alignment: 2 (Halfword-aligned)
  ***** Mis-aligned memory read: Address: 0x08003FC2, NumBytes: 2, Alignment: 2 (Halfword-aligned) -- CPU_ReadMem(64 bytes @ 0x08003FC0) -- Updating C cache (64 bytes @ 0x08003FC0) -- Read from C cache (2 bytes @ 0x08003FC2) - Data: FF F7  returns 0x02 (0002ms, 0613ms total)
T0AC0 520:931 JLINK_ReadMemEx(0x08003FC4, 0x003C Bytes, ..., AccessWidth = 33554432)Mis-aligned memory read: Address: 0x08003FC4, NumBytes: 60, Alignment: 2 (Halfword-aligned)
  ***** Mis-aligned memory read: Address: 0x08003FC4, NumBytes: 60, Alignment: 2 (Halfword-aligned) -- Read from C cache (60 bytes @ 0x08003FC4) - Data: 40 FB FF F7 27 F8 FF F7 0B F8 FF F7 E5 F8 FF F7 ...  returns 0x3C (0000ms, 0613ms total)
T0AC0 520:931 JLINK_ReadMemEx(0x08003FC2, 0x0002 Bytes, ..., AccessWidth = 33554432)Mis-aligned memory read: Address: 0x08003FC2, NumBytes: 2, Alignment: 2 (Halfword-aligned)
  ***** Mis-aligned memory read: Address: 0x08003FC2, NumBytes: 2, Alignment: 2 (Halfword-aligned) -- Read from C cache (2 bytes @ 0x08003FC2) - Data: FF F7  returns 0x02 (0000ms, 0613ms total)
T0AC0 520:931 JLINK_SetBPEx(Addr = 0x08003FC6, Type = 0xFFFFFFF2)  returns 0x00000003 (0000ms, 0613ms total)
T0AC0 520:931 JLINK_Go() -- CPU_WriteMem(4 bytes @ 0xE0002000) -- CPU_WriteMem(4 bytes @ 0xE0002008) (0002ms, 0615ms total)
T0AC0 521:033 JLINK_IsHalted()  returns TRUE (0004ms, 0619ms total)
T0AC0 521:037 JLINK_Halt()  returns 0x00 (0000ms, 0615ms total)
T0AC0 521:037 JLINK_IsHalted()  returns TRUE (0000ms, 0615ms total)
T0AC0 521:037 JLINK_IsHalted()  returns TRUE (0000ms, 0615ms total)
T0AC0 521:037 JLINK_IsHalted()  returns TRUE (0000ms, 0615ms total)
T0AC0 521:037 JLINK_ReadReg(R15 (PC))  returns 0x08003FC6 (0000ms, 0615ms total)
T0AC0 521:037 JLINK_ReadReg(XPSR)  returns 0x41000000 (0000ms, 0615ms total)
T0AC0 521:037 JLINK_ClrBPEx(BPHandle = 0x00000003)  returns 0x00 (0000ms, 0615ms total)
T0AC0 521:037 JLINK_ReadMemU32(0xE000ED30, 0x0001 Items, ...) -- CPU_ReadMem(4 bytes @ 0xE000ED30) - Data: 03 00 00 00  returns 0x01 (0001ms, 0616ms total)
T0AC0 521:038 JLINK_ReadMemU32(0xE0001028, 0x0001 Items, ...) -- CPU_ReadMem(4 bytes @ 0xE0001028) - Data: 00 00 00 00  returns 0x01 (0000ms, 0616ms total)
T0AC0 521:038 JLINK_ReadMemU32(0xE0001038, 0x0001 Items, ...) -- CPU_ReadMem(4 bytes @ 0xE0001038) - Data: 00 02 00 00  returns 0x01 (0001ms, 0617ms total)
T0AC0 521:039 JLINK_ReadMemU32(0xE0001048, 0x0001 Items, ...) -- CPU_ReadMem(4 bytes @ 0xE0001048) - Data: 00 00 00 00  returns 0x01 (0001ms, 0618ms total)
T0AC0 521:040 JLINK_ReadMemU32(0xE0001058, 0x0001 Items, ...) -- CPU_ReadMem(4 bytes @ 0xE0001058) - Data: 00 00 00 00  returns 0x01 (0000ms, 0618ms total)
T0AC0 521:040 JLINK_ReadReg(R0)  returns 0x00000000 (0000ms, 0618ms total)
T0AC0 521:040 JLINK_ReadReg(R1)  returns 0x40021000 (0000ms, 0618ms total)
T0AC0 521:040 JLINK_ReadReg(R2)  returns 0xE000ED18 (0000ms, 0618ms total)
T0AC0 521:040 JLINK_ReadReg(R3)  returns 0x0000000B (0000ms, 0618ms total)
T0AC0 521:040 JLINK_ReadReg(R4)  returns 0x080042D0 (0000ms, 0618ms total)
T0AC0 521:040 JLINK_ReadReg(R5)  returns 0x080042D0 (0000ms, 0618ms total)
T0AC0 521:040 JLINK_ReadReg(R6)  returns 0x000003E8 (0000ms, 0618ms total)
T0AC0 521:040 JLINK_ReadReg(R7)  returns 0x00000000 (0000ms, 0618ms total)
T0AC0 521:040 JLINK_ReadReg(R8)  returns 0x000002FF (0000ms, 0618ms total)
T0AC0 521:040 JLINK_ReadReg(R9)  returns 0x000003E8 (0000ms, 0618ms total)
T0AC0 521:040 JLINK_ReadReg(R10)  returns 0x000002FF (0000ms, 0618ms total)
T0AC0 521:040 JLINK_ReadReg(R11)  returns 0x00000000 (0000ms, 0618ms total)
T0AC0 521:040 JLINK_ReadReg(R12)  returns 0x00000004 (0000ms, 0618ms total)
T0AC0 521:040 JLINK_ReadReg(R13 (SP))  returns 0x200018F8 (0000ms, 0618ms total)
T0AC0 521:040 JLINK_ReadReg(R14)  returns 0x080036C1 (0000ms, 0618ms total)
T0AC0 521:040 JLINK_ReadReg(R15 (PC))  returns 0x08003FC6 (0000ms, 0618ms total)
T0AC0 521:040 JLINK_ReadReg(XPSR)  returns 0x41000000 (0000ms, 0618ms total)
T0AC0 521:040 JLINK_ReadReg(MSP)  returns 0x200018F8 (0000ms, 0618ms total)
T0AC0 521:040 JLINK_ReadReg(PSP)  returns 0x20001000 (0000ms, 0618ms total)
T0AC0 521:040 JLINK_ReadReg(CFBP)  returns 0x00000000 (0000ms, 0618ms total)
T4DD0 521:041 JLINK_ReadMemEx(0x200018FC, 0x001C Bytes, ..., AccessWidth = 33554432)Mis-aligned memory read: Address: 0x200018FC, NumBytes: 28, Alignment: 2 (Halfword-aligned)
  ***** Mis-aligned memory read: Address: 0x200018FC, NumBytes: 28, Alignment: 2 (Halfword-aligned) -- CPU_ReadMem(128 bytes @ 0x200018C0) -- Updating C cache (128 bytes @ 0x200018C0) -- Read from C cache (28 bytes @ 0x200018FC) - Data: 00 00 00 00 00 00 00 00 00 00 00 00 00 00 00 00 ...  returns 0x1C (0001ms, 0619ms total)
T4DD0 521:042 JLINK_ReadMemU32(0xE0001004, 0x0001 Items, ...) -- CPU_ReadMem(4 bytes @ 0xE0001004) - Data: 11 35 00 00  returns 0x01 (0001ms, 0620ms total)
T4DD0 521:047 JLINK_ReadMemEx(0x08003FC6, 0x0002 Bytes, ..., AccessWidth = 33554432)Mis-aligned memory read: Address: 0x08003FC6, NumBytes: 2, Alignment: 2 (Halfword-aligned)
  ***** Mis-aligned memory read: Address: 0x08003FC6, NumBytes: 2, Alignment: 2 (Halfword-aligned) -- CPU_ReadMem(64 bytes @ 0x08003FC0) -- Updating C cache (64 bytes @ 0x08003FC0) -- Read from C cache (2 bytes @ 0x08003FC6) - Data: FF F7  returns 0x02 (0001ms, 0621ms total)
T4DD0 521:048 JLINK_ReadMemEx(0x08003FC8, 0x0038 Bytes, ..., AccessWidth = 33554432)Mis-aligned memory read: Address: 0x08003FC8, NumBytes: 56, Alignment: 2 (Halfword-aligned)
  ***** Mis-aligned memory read: Address: 0x08003FC8, NumBytes: 56, Alignment: 2 (Halfword-aligned) -- Read from C cache (56 bytes @ 0x08003FC8) - Data: 27 F8 FF F7 0B F8 FF F7 E5 F8 FF F7 4B F9 FE F7 ...  returns 0x38 (0000ms, 0621ms total)
T4DD0 521:048 JLINK_ReadMemEx(0x08004000, 0x0004 Bytes, ..., AccessWidth = 33554432)Mis-aligned memory read: Address: 0x08004000, NumBytes: 4, Alignment: 2 (Halfword-aligned)
  ***** Mis-aligned memory read: Address: 0x08004000, NumBytes: 4, Alignment: 2 (Halfword-aligned) -- CPU_ReadMem(64 bytes @ 0x08004000) -- Updating C cache (64 bytes @ 0x08004000) -- Read from C cache (4 bytes @ 0x08004000) - Data: 10 A0 FF F7  returns 0x04 (0001ms, 0622ms total)
T0AC0 521:274 JLINK_ReadMemEx(0x08003FC6, 0x0002 Bytes, ..., AccessWidth = 33554432)Mis-aligned memory read: Address: 0x08003FC6, NumBytes: 2, Alignment: 2 (Halfword-aligned)
  ***** Mis-aligned memory read: Address: 0x08003FC6, NumBytes: 2, Alignment: 2 (Halfword-aligned) -- Read from C cache (2 bytes @ 0x08003FC6) - Data: FF F7  returns 0x02 (0000ms, 0622ms total)
T0AC0 521:274 JLINK_SetBPEx(Addr = 0x08003FCA, Type = 0xFFFFFFF2)  returns 0x00000004 (0000ms, 0622ms total)
T0AC0 521:274 JLINK_Go() -- CPU_WriteMem(4 bytes @ 0xE0002000) -- CPU_WriteMem(4 bytes @ 0xE0002008) (0002ms, 0624ms total)
T0AC0 521:377 JLINK_IsHalted()  returns TRUE (0004ms, 0628ms total)
T0AC0 521:381 JLINK_Halt()  returns 0x00 (0000ms, 0624ms total)
T0AC0 521:381 JLINK_IsHalted()  returns TRUE (0000ms, 0624ms total)
T0AC0 521:381 JLINK_IsHalted()  returns TRUE (0000ms, 0624ms total)
T0AC0 521:381 JLINK_IsHalted()  returns TRUE (0000ms, 0624ms total)
T0AC0 521:381 JLINK_ReadReg(R15 (PC))  returns 0x08003FCA (0000ms, 0624ms total)
T0AC0 521:381 JLINK_ReadReg(XPSR)  returns 0x61000000 (0000ms, 0624ms total)
T0AC0 521:381 JLINK_ClrBPEx(BPHandle = 0x00000004)  returns 0x00 (0000ms, 0624ms total)
T0AC0 521:381 JLINK_ReadMemU32(0xE000ED30, 0x0001 Items, ...) -- CPU_ReadMem(4 bytes @ 0xE000ED30) - Data: 03 00 00 00  returns 0x01 (0001ms, 0625ms total)
T0AC0 521:382 JLINK_ReadMemU32(0xE0001028, 0x0001 Items, ...) -- CPU_ReadMem(4 bytes @ 0xE0001028) - Data: 00 00 00 00  returns 0x01 (0000ms, 0625ms total)
T0AC0 521:382 JLINK_ReadMemU32(0xE0001038, 0x0001 Items, ...) -- CPU_ReadMem(4 bytes @ 0xE0001038) - Data: 00 02 00 00  returns 0x01 (0001ms, 0626ms total)
T0AC0 521:383 JLINK_ReadMemU32(0xE0001048, 0x0001 Items, ...) -- CPU_ReadMem(4 bytes @ 0xE0001048) - Data: 00 00 00 00  returns 0x01 (0000ms, 0626ms total)
T0AC0 521:383 JLINK_ReadMemU32(0xE0001058, 0x0001 Items, ...) -- CPU_ReadMem(4 bytes @ 0xE0001058) - Data: 00 00 00 00  returns 0x01 (0001ms, 0627ms total)
T0AC0 521:384 JLINK_ReadReg(R0)  returns 0x00001000 (0000ms, 0627ms total)
T0AC0 521:384 JLINK_ReadReg(R1)  returns 0x200018E4 (0000ms, 0627ms total)
T0AC0 521:384 JLINK_ReadReg(R2)  returns 0x0000000D (0000ms, 0627ms total)
T0AC0 521:384 JLINK_ReadReg(R3)  returns 0x0000000B (0000ms, 0627ms total)
T0AC0 521:384 JLINK_ReadReg(R4)  returns 0x080042D0 (0000ms, 0627ms total)
T0AC0 521:384 JLINK_ReadReg(R5)  returns 0x080042D0 (0000ms, 0627ms total)
T0AC0 521:384 JLINK_ReadReg(R6)  returns 0x000003E8 (0000ms, 0627ms total)
T0AC0 521:384 JLINK_ReadReg(R7)  returns 0x00000000 (0000ms, 0627ms total)
T0AC0 521:384 JLINK_ReadReg(R8)  returns 0x000002FF (0000ms, 0627ms total)
T0AC0 521:384 JLINK_ReadReg(R9)  returns 0x000003E8 (0000ms, 0627ms total)
T0AC0 521:384 JLINK_ReadReg(R10)  returns 0x000002FF (0000ms, 0627ms total)
T0AC0 521:384 JLINK_ReadReg(R11)  returns 0x00000000 (0000ms, 0627ms total)
T0AC0 521:384 JLINK_ReadReg(R12)  returns 0x00000008 (0000ms, 0627ms total)
T0AC0 521:384 JLINK_ReadReg(R13 (SP))  returns 0x200018F8 (0000ms, 0627ms total)
T0AC0 521:384 JLINK_ReadReg(R14)  returns 0x0800310B (0000ms, 0627ms total)
T0AC0 521:384 JLINK_ReadReg(R15 (PC))  returns 0x08003FCA (0000ms, 0627ms total)
T0AC0 521:384 JLINK_ReadReg(XPSR)  returns 0x61000000 (0000ms, 0627ms total)
T0AC0 521:384 JLINK_ReadReg(MSP)  returns 0x200018F8 (0000ms, 0627ms total)
T0AC0 521:384 JLINK_ReadReg(PSP)  returns 0x20001000 (0000ms, 0627ms total)
T0AC0 521:384 JLINK_ReadReg(CFBP)  returns 0x00000000 (0000ms, 0627ms total)
T4DD0 521:384 JLINK_ReadMemEx(0x200018FC, 0x001C Bytes, ..., AccessWidth = 33554432)Mis-aligned memory read: Address: 0x200018FC, NumBytes: 28, Alignment: 2 (Halfword-aligned)
  ***** Mis-aligned memory read: Address: 0x200018FC, NumBytes: 28, Alignment: 2 (Halfword-aligned) -- CPU_ReadMem(128 bytes @ 0x200018C0) -- Updating C cache (128 bytes @ 0x200018C0) -- Read from C cache (28 bytes @ 0x200018FC) - Data: 00 00 00 00 00 00 00 00 00 00 00 00 00 00 00 00 ...  returns 0x1C (0003ms, 0630ms total)
T4DD0 521:387 JLINK_ReadMemU32(0xE0001004, 0x0001 Items, ...) -- CPU_ReadMem(4 bytes @ 0xE0001004) - Data: ED 3E 00 00  returns 0x01 (0000ms, 0630ms total)
T4DD0 521:392 JLINK_ReadMemEx(0x08003FC6, 0x0002 Bytes, ..., AccessWidth = 33554432)Mis-aligned memory read: Address: 0x08003FC6, NumBytes: 2, Alignment: 2 (Halfword-aligned)
  ***** Mis-aligned memory read: Address: 0x08003FC6, NumBytes: 2, Alignment: 2 (Halfword-aligned) -- CPU_ReadMem(64 bytes @ 0x08003FC0) -- Updating C cache (64 bytes @ 0x08003FC0) -- Read from C cache (2 bytes @ 0x08003FC6) - Data: FF F7  returns 0x02 (0002ms, 0632ms total)
T4DD0 521:394 JLINK_ReadMemEx(0x08003FC8, 0x0038 Bytes, ..., AccessWidth = 33554432)Mis-aligned memory read: Address: 0x08003FC8, NumBytes: 56, Alignment: 2 (Halfword-aligned)
  ***** Mis-aligned memory read: Address: 0x08003FC8, NumBytes: 56, Alignment: 2 (Halfword-aligned) -- Read from C cache (56 bytes @ 0x08003FC8) - Data: 27 F8 FF F7 0B F8 FF F7 E5 F8 FF F7 4B F9 FE F7 ...  returns 0x38 (0000ms, 0632ms total)
T4DD0 521:394 JLINK_ReadMemEx(0x08004000, 0x0004 Bytes, ..., AccessWidth = 33554432)Mis-aligned memory read: Address: 0x08004000, NumBytes: 4, Alignment: 2 (Halfword-aligned)
  ***** Mis-aligned memory read: Address: 0x08004000, NumBytes: 4, Alignment: 2 (Halfword-aligned) -- CPU_ReadMem(64 bytes @ 0x08004000) -- Updating C cache (64 bytes @ 0x08004000) -- Read from C cache (4 bytes @ 0x08004000) - Data: 10 A0 FF F7  returns 0x04 (0001ms, 0633ms total)
T0AC0 521:586 JLINK_ReadMemEx(0x08003FCA, 0x0002 Bytes, ..., AccessWidth = 33554432)Mis-aligned memory read: Address: 0x08003FCA, NumBytes: 2, Alignment: 2 (Halfword-aligned)
  ***** Mis-aligned memory read: Address: 0x08003FCA, NumBytes: 2, Alignment: 2 (Halfword-aligned) -- Read from C cache (2 bytes @ 0x08003FCA) - Data: FF F7  returns 0x02 (0000ms, 0633ms total)
T0AC0 521:586 JLINK_SetBPEx(Addr = 0x08003FCE, Type = 0xFFFFFFF2)  returns 0x00000005 (0000ms, 0633ms total)
T0AC0 521:586 JLINK_Go() -- CPU_WriteMem(4 bytes @ 0xE0002000) -- CPU_WriteMem(4 bytes @ 0xE0002008) (0002ms, 0635ms total)
T0AC0 521:689 JLINK_IsHalted()  returns TRUE (0004ms, 0639ms total)
T0AC0 521:693 JLINK_Halt()  returns 0x00 (0000ms, 0635ms total)
T0AC0 521:693 JLINK_IsHalted()  returns TRUE (0000ms, 0635ms total)
T0AC0 521:693 JLINK_IsHalted()  returns TRUE (0000ms, 0635ms total)
T0AC0 521:693 JLINK_IsHalted()  returns TRUE (0000ms, 0635ms total)
T0AC0 521:693 JLINK_ReadReg(R15 (PC))  returns 0x08003FCE (0000ms, 0635ms total)
T0AC0 521:693 JLINK_ReadReg(XPSR)  returns 0x41000000 (0000ms, 0635ms total)
T0AC0 521:693 JLINK_ClrBPEx(BPHandle = 0x00000005)  returns 0x00 (0000ms, 0635ms total)
T0AC0 521:693 JLINK_ReadMemU32(0xE000ED30, 0x0001 Items, ...) -- CPU_ReadMem(4 bytes @ 0xE000ED30) - Data: 03 00 00 00  returns 0x01 (0001ms, 0636ms total)
T0AC0 521:694 JLINK_ReadMemU32(0xE0001028, 0x0001 Items, ...) -- CPU_ReadMem(4 bytes @ 0xE0001028) - Data: 00 00 00 00  returns 0x01 (0000ms, 0636ms total)
T0AC0 521:694 JLINK_ReadMemU32(0xE0001038, 0x0001 Items, ...) -- CPU_ReadMem(4 bytes @ 0xE0001038) - Data: 00 02 00 00  returns 0x01 (0001ms, 0637ms total)
T0AC0 521:695 JLINK_ReadMemU32(0xE0001048, 0x0001 Items, ...) -- CPU_ReadMem(4 bytes @ 0xE0001048) - Data: 00 00 00 00  returns 0x01 (0000ms, 0637ms total)
T0AC0 521:695 JLINK_ReadMemU32(0xE0001058, 0x0001 Items, ...) -- CPU_ReadMem(4 bytes @ 0xE0001058) - Data: 00 00 00 00  returns 0x01 (0001ms, 0638ms total)
T0AC0 521:696 JLINK_ReadReg(R0)  returns 0x0000000B (0000ms, 0638ms total)
T0AC0 521:696 JLINK_ReadReg(R1)  returns 0x0000000B (0000ms, 0638ms total)
T0AC0 521:696 JLINK_ReadReg(R2)  returns 0x00000800 (0000ms, 0638ms total)
T0AC0 521:696 JLINK_ReadReg(R3)  returns 0x00000001 (0000ms, 0638ms total)
T0AC0 521:696 JLINK_ReadReg(R4)  returns 0x080042D0 (0000ms, 0638ms total)
T0AC0 521:696 JLINK_ReadReg(R5)  returns 0x080042D0 (0000ms, 0638ms total)
T0AC0 521:696 JLINK_ReadReg(R6)  returns 0x000003E8 (0000ms, 0638ms total)
T0AC0 521:696 JLINK_ReadReg(R7)  returns 0x00000000 (0000ms, 0638ms total)
T0AC0 521:696 JLINK_ReadReg(R8)  returns 0x000002FF (0000ms, 0638ms total)
T0AC0 521:696 JLINK_ReadReg(R9)  returns 0x000003E8 (0000ms, 0638ms total)
T0AC0 521:696 JLINK_ReadReg(R10)  returns 0x000002FF (0000ms, 0638ms total)
T0AC0 521:696 JLINK_ReadReg(R11)  returns 0x00000000 (0000ms, 0638ms total)
T0AC0 521:696 JLINK_ReadReg(R12)  returns 0x00000008 (0000ms, 0638ms total)
T0AC0 521:696 JLINK_ReadReg(R13 (SP))  returns 0x200018F8 (0000ms, 0638ms total)
T0AC0 521:696 JLINK_ReadReg(R14)  returns 0x08003013 (0000ms, 0638ms total)
T0AC0 521:696 JLINK_ReadReg(R15 (PC))  returns 0x08003FCE (0000ms, 0638ms total)
T0AC0 521:696 JLINK_ReadReg(XPSR)  returns 0x41000000 (0000ms, 0638ms total)
T0AC0 521:696 JLINK_ReadReg(MSP)  returns 0x200018F8 (0000ms, 0638ms total)
T0AC0 521:696 JLINK_ReadReg(PSP)  returns 0x20001000 (0000ms, 0638ms total)
T0AC0 521:696 JLINK_ReadReg(CFBP)  returns 0x00000000 (0000ms, 0638ms total)
T4DD0 521:696 JLINK_ReadMemEx(0x200018FC, 0x001C Bytes, ..., AccessWidth = 33554432)Mis-aligned memory read: Address: 0x200018FC, NumBytes: 28, Alignment: 2 (Halfword-aligned)
  ***** Mis-aligned memory read: Address: 0x200018FC, NumBytes: 28, Alignment: 2 (Halfword-aligned) -- CPU_ReadMem(128 bytes @ 0x200018C0) -- Updating C cache (128 bytes @ 0x200018C0) -- Read from C cache (28 bytes @ 0x200018FC) - Data: 00 00 00 00 00 00 00 00 00 00 00 00 00 00 00 00 ...  returns 0x1C (0003ms, 0641ms total)
T4DD0 521:699 JLINK_ReadMemU32(0xE0001004, 0x0001 Items, ...) -- CPU_ReadMem(4 bytes @ 0xE0001004) - Data: B1 3F 00 00  returns 0x01 (0000ms, 0641ms total)
T4DD0 521:703 JLINK_ReadMemEx(0x08003FCE, 0x0002 Bytes, ..., AccessWidth = 33554432)Mis-aligned memory read: Address: 0x08003FCE, NumBytes: 2, Alignment: 2 (Halfword-aligned)
  ***** Mis-aligned memory read: Address: 0x08003FCE, NumBytes: 2, Alignment: 2 (Halfword-aligned) -- CPU_ReadMem(64 bytes @ 0x08003FC0) -- Updating C cache (64 bytes @ 0x08003FC0) -- Read from C cache (2 bytes @ 0x08003FCE) - Data: FF F7  returns 0x02 (0001ms, 0642ms total)
T4DD0 521:704 JLINK_ReadMemEx(0x08003FD0, 0x0030 Bytes, ..., AccessWidth = 33554432)Mis-aligned memory read: Address: 0x08003FD0, NumBytes: 48, Alignment: 2 (Halfword-aligned)
  ***** Mis-aligned memory read: Address: 0x08003FD0, NumBytes: 48, Alignment: 2 (Halfword-aligned) -- Read from C cache (48 bytes @ 0x08003FD0) - Data: E5 F8 FF F7 4B F9 FE F7 D5 FF FF F7 9F F8 FF F7 ...  returns 0x30 (0000ms, 0642ms total)
T4DD0 521:704 JLINK_ReadMemEx(0x08004000, 0x000C Bytes, ..., AccessWidth = 33554432)Mis-aligned memory read: Address: 0x08004000, NumBytes: 12, Alignment: 2 (Halfword-aligned)
  ***** Mis-aligned memory read: Address: 0x08004000, NumBytes: 12, Alignment: 2 (Halfword-aligned) -- CPU_ReadMem(64 bytes @ 0x08004000) -- Updating C cache (64 bytes @ 0x08004000) -- Read from C cache (12 bytes @ 0x08004000) - Data: 10 A0 FF F7 5F FD FF F7 9B F9 13 A0  returns 0x0C (0001ms, 0643ms total)
T0AC0 521:913 JLINK_ReadMemEx(0x08003FCE, 0x0002 Bytes, ..., AccessWidth = 33554432)Mis-aligned memory read: Address: 0x08003FCE, NumBytes: 2, Alignment: 2 (Halfword-aligned)
  ***** Mis-aligned memory read: Address: 0x08003FCE, NumBytes: 2, Alignment: 2 (Halfword-aligned) -- Read from C cache (2 bytes @ 0x08003FCE) - Data: FF F7  returns 0x02 (0000ms, 0643ms total)
T0AC0 521:913 JLINK_SetBPEx(Addr = 0x08003FD2, Type = 0xFFFFFFF2)  returns 0x00000006 (0000ms, 0643ms total)
T0AC0 521:913 JLINK_Go() -- CPU_WriteMem(4 bytes @ 0xE0002000) -- CPU_WriteMem(4 bytes @ 0xE0002008) (0001ms, 0644ms total)
T0AC0 522:015 JLINK_IsHalted()  returns TRUE (0003ms, 0647ms total)
T0AC0 522:018 JLINK_Halt()  returns 0x00 (0000ms, 0644ms total)
T0AC0 522:018 JLINK_IsHalted()  returns TRUE (0000ms, 0644ms total)
T0AC0 522:018 JLINK_IsHalted()  returns TRUE (0000ms, 0644ms total)
T0AC0 522:018 JLINK_IsHalted()  returns TRUE (0000ms, 0644ms total)
T0AC0 522:018 JLINK_ReadReg(R15 (PC))  returns 0x08003FD2 (0000ms, 0644ms total)
T0AC0 522:018 JLINK_ReadReg(XPSR)  returns 0x61000000 (0000ms, 0644ms total)
T0AC0 522:018 JLINK_ClrBPEx(BPHandle = 0x00000006)  returns 0x00 (0000ms, 0644ms total)
T0AC0 522:018 JLINK_ReadMemU32(0xE000ED30, 0x0001 Items, ...) -- CPU_ReadMem(4 bytes @ 0xE000ED30) - Data: 03 00 00 00  returns 0x01 (0001ms, 0645ms total)
T0AC0 522:019 JLINK_ReadMemU32(0xE0001028, 0x0001 Items, ...) -- CPU_ReadMem(4 bytes @ 0xE0001028) - Data: 00 00 00 00  returns 0x01 (0001ms, 0646ms total)
T0AC0 522:020 JLINK_ReadMemU32(0xE0001038, 0x0001 Items, ...) -- CPU_ReadMem(4 bytes @ 0xE0001038) - Data: 00 02 00 00  returns 0x01 (0000ms, 0646ms total)
T0AC0 522:020 JLINK_ReadMemU32(0xE0001048, 0x0001 Items, ...) -- CPU_ReadMem(4 bytes @ 0xE0001048) - Data: 00 00 00 00  returns 0x01 (0001ms, 0647ms total)
T0AC0 522:021 JLINK_ReadMemU32(0xE0001058, 0x0001 Items, ...) -- CPU_ReadMem(4 bytes @ 0xE0001058) - Data: 00 00 00 00  returns 0x01 (0000ms, 0647ms total)
T0AC0 522:021 JLINK_ReadReg(R0)  returns 0x00000008 (0000ms, 0647ms total)
T0AC0 522:021 JLINK_ReadReg(R1)  returns 0x200018A8 (0000ms, 0647ms total)
T0AC0 522:021 JLINK_ReadReg(R2)  returns 0x00000004 (0000ms, 0647ms total)
T0AC0 522:021 JLINK_ReadReg(R3)  returns 0x00000000 (0000ms, 0647ms total)
T0AC0 522:021 JLINK_ReadReg(R4)  returns 0x080042D0 (0000ms, 0647ms total)
T0AC0 522:021 JLINK_ReadReg(R5)  returns 0x080042D0 (0000ms, 0647ms total)
T0AC0 522:021 JLINK_ReadReg(R6)  returns 0x000003E8 (0000ms, 0647ms total)
T0AC0 522:021 JLINK_ReadReg(R7)  returns 0x00000000 (0000ms, 0647ms total)
T0AC0 522:021 JLINK_ReadReg(R8)  returns 0x000002FF (0000ms, 0647ms total)
T0AC0 522:021 JLINK_ReadReg(R9)  returns 0x000003E8 (0000ms, 0647ms total)
T0AC0 522:021 JLINK_ReadReg(R10)  returns 0x000002FF (0000ms, 0647ms total)
T0AC0 522:021 JLINK_ReadReg(R11)  returns 0x00000000 (0000ms, 0647ms total)
T0AC0 522:021 JLINK_ReadReg(R12)  returns 0x0000000A (0000ms, 0647ms total)
T0AC0 522:021 JLINK_ReadReg(R13 (SP))  returns 0x200018F8 (0000ms, 0647ms total)
T0AC0 522:021 JLINK_ReadReg(R14)  returns 0x08002573 (0000ms, 0647ms total)
T0AC0 522:021 JLINK_ReadReg(R15 (PC))  returns 0x08003FD2 (0000ms, 0647ms total)
T0AC0 522:021 JLINK_ReadReg(XPSR)  returns 0x61000000 (0000ms, 0647ms total)
T0AC0 522:021 JLINK_ReadReg(MSP)  returns 0x200018F8 (0000ms, 0647ms total)
T0AC0 522:021 JLINK_ReadReg(PSP)  returns 0x20001000 (0000ms, 0647ms total)
T0AC0 522:021 JLINK_ReadReg(CFBP)  returns 0x00000000 (0000ms, 0647ms total)
T4DD0 522:022 JLINK_ReadMemEx(0x200018FC, 0x001C Bytes, ..., AccessWidth = 33554432)Mis-aligned memory read: Address: 0x200018FC, NumBytes: 28, Alignment: 2 (Halfword-aligned)
  ***** Mis-aligned memory read: Address: 0x200018FC, NumBytes: 28, Alignment: 2 (Halfword-aligned) -- CPU_ReadMem(128 bytes @ 0x200018C0) -- Updating C cache (128 bytes @ 0x200018C0) -- Read from C cache (28 bytes @ 0x200018FC) - Data: 00 00 00 00 00 00 00 00 00 00 00 00 00 00 00 00 ...  returns 0x1C (0001ms, 0648ms total)
T4DD0 522:023 JLINK_ReadMemU32(0xE0001004, 0x0001 Items, ...) -- CPU_ReadMem(4 bytes @ 0xE0001004) - Data: D9 48 00 00  returns 0x01 (0001ms, 0649ms total)
T4DD0 522:029 JLINK_ReadMemEx(0x08003FCE, 0x0002 Bytes, ..., AccessWidth = 33554432)Mis-aligned memory read: Address: 0x08003FCE, NumBytes: 2, Alignment: 2 (Halfword-aligned)
  ***** Mis-aligned memory read: Address: 0x08003FCE, NumBytes: 2, Alignment: 2 (Halfword-aligned) -- CPU_ReadMem(64 bytes @ 0x08003FC0) -- Updating C cache (64 bytes @ 0x08003FC0) -- Read from C cache (2 bytes @ 0x08003FCE) - Data: FF F7  returns 0x02 (0002ms, 0651ms total)
T4DD0 522:031 JLINK_ReadMemEx(0x08003FD0, 0x0030 Bytes, ..., AccessWidth = 33554432)Mis-aligned memory read: Address: 0x08003FD0, NumBytes: 48, Alignment: 2 (Halfword-aligned)
  ***** Mis-aligned memory read: Address: 0x08003FD0, NumBytes: 48, Alignment: 2 (Halfword-aligned) -- Read from C cache (48 bytes @ 0x08003FD0) - Data: E5 F8 FF F7 4B F9 FE F7 D5 FF FF F7 9F F8 FF F7 ...  returns 0x30 (0000ms, 0651ms total)
T4DD0 522:031 JLINK_ReadMemEx(0x08004000, 0x000C Bytes, ..., AccessWidth = 33554432)Mis-aligned memory read: Address: 0x08004000, NumBytes: 12, Alignment: 2 (Halfword-aligned)
  ***** Mis-aligned memory read: Address: 0x08004000, NumBytes: 12, Alignment: 2 (Halfword-aligned) -- CPU_ReadMem(64 bytes @ 0x08004000) -- Updating C cache (64 bytes @ 0x08004000) -- Read from C cache (12 bytes @ 0x08004000) - Data: 10 A0 FF F7 5F FD FF F7 9B F9 13 A0  returns 0x0C (0001ms, 0652ms total)
T0AC0 522:322 JLINK_ReadMemEx(0x08003FD2, 0x0002 Bytes, ..., AccessWidth = 33554432)Mis-aligned memory read: Address: 0x08003FD2, NumBytes: 2, Alignment: 2 (Halfword-aligned)
  ***** Mis-aligned memory read: Address: 0x08003FD2, NumBytes: 2, Alignment: 2 (Halfword-aligned) -- Read from C cache (2 bytes @ 0x08003FD2) - Data: FF F7  returns 0x02 (0001ms, 0653ms total)
T0AC0 522:323 JLINK_SetBPEx(Addr = 0x08003FD6, Type = 0xFFFFFFF2)  returns 0x00000007 (0000ms, 0653ms total)
T0AC0 522:323 JLINK_Go() -- CPU_WriteMem(4 bytes @ 0xE0002000) -- CPU_WriteMem(4 bytes @ 0xE0002008) (0002ms, 0655ms total)
T0AC0 522:425 JLINK_IsHalted()  returns TRUE (0004ms, 0659ms total)
T0AC0 522:429 JLINK_Halt()  returns 0x00 (0000ms, 0655ms total)
T0AC0 522:429 JLINK_IsHalted()  returns TRUE (0000ms, 0655ms total)
T0AC0 522:429 JLINK_IsHalted()  returns TRUE (0000ms, 0655ms total)
T0AC0 522:429 JLINK_IsHalted()  returns TRUE (0000ms, 0655ms total)
T0AC0 522:429 JLINK_ReadReg(R15 (PC))  returns 0x08003FD6 (0000ms, 0655ms total)
T0AC0 522:429 JLINK_ReadReg(XPSR)  returns 0x41000000 (0000ms, 0655ms total)
T0AC0 522:429 JLINK_ClrBPEx(BPHandle = 0x00000007)  returns 0x00 (0000ms, 0655ms total)
T0AC0 522:429 JLINK_ReadMemU32(0xE000ED30, 0x0001 Items, ...) -- CPU_ReadMem(4 bytes @ 0xE000ED30) - Data: 03 00 00 00  returns 0x01 (0001ms, 0656ms total)
T0AC0 522:430 JLINK_ReadMemU32(0xE0001028, 0x0001 Items, ...) -- CPU_ReadMem(4 bytes @ 0xE0001028) - Data: 00 00 00 00  returns 0x01 (0000ms, 0656ms total)
T0AC0 522:430 JLINK_ReadMemU32(0xE0001038, 0x0001 Items, ...) -- CPU_ReadMem(4 bytes @ 0xE0001038) - Data: 00 02 00 00  returns 0x01 (0001ms, 0657ms total)
T0AC0 522:431 JLINK_ReadMemU32(0xE0001048, 0x0001 Items, ...) -- CPU_ReadMem(4 bytes @ 0xE0001048) - Data: 00 00 00 00  returns 0x01 (0001ms, 0658ms total)
T0AC0 522:432 JLINK_ReadMemU32(0xE0001058, 0x0001 Items, ...) -- CPU_ReadMem(4 bytes @ 0xE0001058) - Data: 00 00 00 00  returns 0x01 (0000ms, 0658ms total)
T0AC0 522:432 JLINK_ReadReg(R0)  returns 0x00000000 (0000ms, 0658ms total)
T0AC0 522:432 JLINK_ReadReg(R1)  returns 0x40004800 (0000ms, 0658ms total)
T0AC0 522:432 JLINK_ReadReg(R2)  returns 0x40004800 (0000ms, 0658ms total)
T0AC0 522:432 JLINK_ReadReg(R3)  returns 0x00000064 (0000ms, 0658ms total)
T0AC0 522:432 JLINK_ReadReg(R4)  returns 0x080042D0 (0000ms, 0658ms total)
T0AC0 522:432 JLINK_ReadReg(R5)  returns 0x080042D0 (0000ms, 0658ms total)
T0AC0 522:432 JLINK_ReadReg(R6)  returns 0x000003E8 (0000ms, 0658ms total)
T0AC0 522:432 JLINK_ReadReg(R7)  returns 0x00000000 (0000ms, 0658ms total)
T0AC0 522:432 JLINK_ReadReg(R8)  returns 0x000002FF (0000ms, 0658ms total)
T0AC0 522:432 JLINK_ReadReg(R9)  returns 0x000003E8 (0000ms, 0658ms total)
T0AC0 522:432 JLINK_ReadReg(R10)  returns 0x000002FF (0000ms, 0658ms total)
T0AC0 522:432 JLINK_ReadReg(R11)  returns 0x00000000 (0000ms, 0658ms total)
T0AC0 522:432 JLINK_ReadReg(R12)  returns 0x00000004 (0000ms, 0658ms total)
T0AC0 522:432 JLINK_ReadReg(R13 (SP))  returns 0x200018F8 (0000ms, 0658ms total)
T0AC0 522:432 JLINK_ReadReg(R14)  returns 0x08001A3F (0000ms, 0658ms total)
T0AC0 522:432 JLINK_ReadReg(R15 (PC))  returns 0x08003FD6 (0000ms, 0658ms total)
T0AC0 522:432 JLINK_ReadReg(XPSR)  returns 0x41000000 (0000ms, 0658ms total)
T0AC0 522:432 JLINK_ReadReg(MSP)  returns 0x200018F8 (0000ms, 0658ms total)
T0AC0 522:432 JLINK_ReadReg(PSP)  returns 0x20001000 (0000ms, 0658ms total)
T0AC0 522:432 JLINK_ReadReg(CFBP)  returns 0x00000000 (0000ms, 0658ms total)
T4DD0 522:433 JLINK_ReadMemEx(0x200018FC, 0x001C Bytes, ..., AccessWidth = 33554432)Mis-aligned memory read: Address: 0x200018FC, NumBytes: 28, Alignment: 2 (Halfword-aligned)
  ***** Mis-aligned memory read: Address: 0x200018FC, NumBytes: 28, Alignment: 2 (Halfword-aligned) -- CPU_ReadMem(128 bytes @ 0x200018C0) -- Updating C cache (128 bytes @ 0x200018C0) -- Read from C cache (28 bytes @ 0x200018FC) - Data: 00 00 00 00 00 00 00 00 00 00 00 00 00 00 00 00 ...  returns 0x1C (0002ms, 0660ms total)
T4DD0 522:435 JLINK_ReadMemU32(0xE0001004, 0x0001 Items, ...) -- CPU_ReadMem(4 bytes @ 0xE0001004) - Data: E0 4E 00 00  returns 0x01 (0000ms, 0660ms total)
T4DD0 522:438 JLINK_ReadMemEx(0x08003FD6, 0x0002 Bytes, ..., AccessWidth = 33554432)Mis-aligned memory read: Address: 0x08003FD6, NumBytes: 2, Alignment: 2 (Halfword-aligned)
  ***** Mis-aligned memory read: Address: 0x08003FD6, NumBytes: 2, Alignment: 2 (Halfword-aligned) -- CPU_ReadMem(64 bytes @ 0x08003FC0) -- Updating C cache (64 bytes @ 0x08003FC0) -- Read from C cache (2 bytes @ 0x08003FD6) - Data: FE F7  returns 0x02 (0001ms, 0661ms total)
T4DD0 522:439 JLINK_ReadMemEx(0x08003FD8, 0x0028 Bytes, ..., AccessWidth = 33554432)Mis-aligned memory read: Address: 0x08003FD8, NumBytes: 40, Alignment: 2 (Halfword-aligned)
  ***** Mis-aligned memory read: Address: 0x08003FD8, NumBytes: 40, Alignment: 2 (Halfword-aligned) -- Read from C cache (40 bytes @ 0x08003FD8) - Data: D5 FF FF F7 9F F8 FF F7 BB F8 FE F7 24 FF 0A 22 ...  returns 0x28 (0000ms, 0661ms total)
T4DD0 522:439 JLINK_ReadMemEx(0x08004000, 0x0014 Bytes, ..., AccessWidth = 33554432)Mis-aligned memory read: Address: 0x08004000, NumBytes: 20, Alignment: 2 (Halfword-aligned)
  ***** Mis-aligned memory read: Address: 0x08004000, NumBytes: 20, Alignment: 2 (Halfword-aligned) -- CPU_ReadMem(64 bytes @ 0x08004000) -- Updating C cache (64 bytes @ 0x08004000) -- Read from C cache (20 bytes @ 0x08004000) - Data: 10 A0 FF F7 5F FD FF F7 9B F9 13 A0 FF F7 5A FD ...  returns 0x14 (0002ms, 0663ms total)
T0AC0 522:810 JLINK_ReadMemEx(0x08003FD6, 0x0002 Bytes, ..., AccessWidth = 33554432)Mis-aligned memory read: Address: 0x08003FD6, NumBytes: 2, Alignment: 2 (Halfword-aligned)
  ***** Mis-aligned memory read: Address: 0x08003FD6, NumBytes: 2, Alignment: 2 (Halfword-aligned) -- Read from C cache (2 bytes @ 0x08003FD6) - Data: FE F7  returns 0x02 (0001ms, 0664ms total)
T0AC0 522:811 JLINK_SetBPEx(Addr = 0x08003FDA, Type = 0xFFFFFFF2)  returns 0x00000008 (0000ms, 0664ms total)
